
**** 03/01/19 08:10:11 *********** Evaluation PSpice (Nov 1999) **************

 * C:\Users\laboratorium\Desktop\Lab_1_1.sch


 ****     CIRCUIT DESCRIPTION


******************************************************************************




* Schematics Version 9.1 - Web Update 1
* Fri Mar 01 08:10:11 2019



** Analysis setup **
.tran 0.1m 25m
.OP 


* From [PSPICE NETLIST] section of pspiceev.ini:
.lib "nom.lib"

.INC "Lab_1_1.net"

**** INCLUDING Lab_1_1.net ****
* Schematics Netlist *



V_VU         $N_0001 0 100
R_R         $N_0001 $N_0002  10  
C_C         $N_0002 0  1m IC=0 

**** RESUMING Lab_1_1.cir ****
.INC "Lab_1_1.als"



**** INCLUDING Lab_1_1.als ****
* Schematics Aliases *

.ALIASES
V_VU            VU(+=$N_0001 -=0 )
R_R             R(1=$N_0001 2=$N_0002 )
C_C             C(1=$N_0002 2=0 )
.ENDALIASES


**** RESUMING Lab_1_1.cir ****
.probe


.END

**** 03/01/19 08:10:11 *********** Evaluation PSpice (Nov 1999) **************

 * C:\Users\laboratorium\Desktop\Lab_1_1.sch


 ****     SMALL SIGNAL BIAS SOLUTION       TEMPERATURE =   27.000 DEG C


******************************************************************************



 NODE   VOLTAGE     NODE   VOLTAGE     NODE   VOLTAGE     NODE   VOLTAGE


($N_0001)  100.0000                   ($N_0002)     .0200                   




    VOLTAGE SOURCE CURRENTS
    NAME         CURRENT

    V_VU        -9.998E+00

    TOTAL POWER DISSIPATION   1.00E+03  WATTS


**** 03/01/19 08:10:11 *********** Evaluation PSpice (Nov 1999) **************

 * C:\Users\laboratorium\Desktop\Lab_1_1.sch


 ****     OPERATING POINT INFORMATION      TEMPERATURE =   27.000 DEG C


******************************************************************************




**** 03/01/19 08:10:11 *********** Evaluation PSpice (Nov 1999) **************

 * C:\Users\laboratorium\Desktop\Lab_1_1.sch


 ****     INITIAL TRANSIENT SOLUTION       TEMPERATURE =   27.000 DEG C


******************************************************************************



 NODE   VOLTAGE     NODE   VOLTAGE     NODE   VOLTAGE     NODE   VOLTAGE


($N_0001)  100.0000                   ($N_0002)     .0200                   




    VOLTAGE SOURCE CURRENTS
    NAME         CURRENT

    V_VU        -9.998E+00

    TOTAL POWER DISSIPATION   1.00E+03  WATTS



          JOB CONCLUDED

          TOTAL JOB TIME             .02
